Index Time TM_X(lat) TM_Y(long) T_Heading GPS_Spd WP_Target WP_Index Steering_CMD Speed_CMD BATT_Volt Discharge SoC Trackig_Error
1	32683403	513272.216138	198390.524320	0.000	0.312	100	508	-23	4	46.89	1.1	47	162.970529	
2	32683904	513272.234573	198390.849763	0.000	0.278	100	508	-23	4	46.89	1.1	47	163.296490	
3	32684405	513272.216039	198391.042064	0.000	0.290	100	508	-23	4	46.89	1.1	47	163.487567	
4	32684906	513272.141997	198391.323112	0.000	0.183	100	508	-23	4	46.89	1.1	47	163.764411	
5	32685406	513272.104950	198391.604166	0.000	0.257	100	508	-23	4	46.89	1.1	47	164.043197	
6	32685906	513272.086416	198391.796467	0.000	0.367	100	508	-23	4	46.88	1.1	47	164.234303	
7	32686412	513272.104865	198392.047947	0.000	0.377	100	508	-23	4	46.88	1.1	47	164.486396	
8	32686913	513272.012335	198392.284613	0.000	0.258	100	508	-23	4	46.88	1.1	47	164.718071	
9	32687413	513271.975307	198392.462118	0.000	0.378	100	508	-23	4	46.88	1.1	47	164.893494	
10	32687914	513271.845777	198392.728362	0.000	0.433	100	508	-23	4	46.88	1.1	47	165.152982	
11	32688414	513271.531275	198393.009363	0.000	0.150	100	508	-23	4	46.88	1.1	47	165.418498	
12	32688915	513271.383254	198393.246018	0.000	0.232	100	508	-23	4	46.89	1.1	47	165.647977	
13	32689415	513271.142726	198393.600997	0.000	0.154	100	508	-23	4	46.89	1.1	47	165.991649	
14	32689915	513270.976208	198393.837649	0.000	0.215	100	508	-23	4	46.89	1.1	47	166.220714	
15	32690415	513270.754183	198394.163046	0.000	0.280	100	508	-23	4	46.89	1.1	47	166.536278	
16	32690915	513270.476672	198394.458847	0.000	0.146	100	508	-23	4	46.88	1.1	47	166.820348	
17	32691415	513270.254669	198394.665902	0.000	0.126	100	508	-23	4	46.88	1.1	47	167.018403	
18	32691915	513269.977152	198394.991289	0.000	0.208	100	508	-23	4	46.88	1.1	47	167.332937	
19	32692415	513269.792140	198395.213144	0.000	0.129	100	509	-24	4	46.88	1.1	47	167.547638	
20	32692915	513269.533132	198395.479364	0.000	0.187	100	509	-24	4	46.88	1.1	47	167.804225	
21	32693416	513269.218619	198395.819536	0.000	0.152	100	509	-24	4	46.89	1.1	47	168.133268	
22	32693916	513268.996613	198396.041384	0.000	0.224	100	509	-24	4	46.89	1.1	47	168.347650	
23	32694417	513268.700611	198396.307596	0.000	0.179	100	509	-24	4	46.88	1.1	47	168.604406	
24	32694917	513268.460097	198396.588612	0.000	0.060	100	509	-24	4	46.88	1.1	47	168.878115	
25	32695417	513268.219603	198396.766079	0.000	0.134	100	509	-24	4	46.88	1.1	47	169.048680	
26	32695917	513267.923592	198397.076669	0.000	0.077	100	509	-24	4	46.87	1.1	47	169.351234	
27	32696417	513267.609104	198397.283707	0.000	0.060	100	509	-24	4	46.88	1.1	47	169.550367	
28	32696917	513267.183638	198397.475931	0.000	0.295	100	509	-24	4	46.88	1.1	47	169.732874	
29	32697417	513266.591712	198397.594160	0.000	0.461	100	509	-24	4	46.88	1.1	47	169.839415	
30	32697917	513266.221745	198397.742017	0.000	0.321	100	509	-24	4	46.88	1.1	47	169.981012	
31	32698418	513265.796276	198397.949034	0.000	0.099	100	509	-24	4	46.86	1.1	47	170.181835	
32	32698919	513265.333824	198398.096873	0.000	0.186	100	509	-24	4	46.86	1.1	47	170.324167	
33	32699419	513265.037850	198398.215158	0.000	0.161	100	509	-24	4	46.86	1.1	47	170.439591	
34	32699920	513264.501415	198398.333398	0.000	0.204	100	509	-24	4	46.86	1.1	47	170.553964	
35	32700420	513264.186945	198398.451680	0.000	0.246	100	509	-24	4	46.86	1.1	47	170.670765	
36	32700920	513263.816980	198398.584744	0.000	0.215	100	509	-24	4	46.86	1.1	47	170.802831	
37	32701421	513263.373022	198398.747379	0.000	0.185	100	509	-24	4	46.86	1.1	47	170.965328	
38	32701922	513263.132542	198398.850882	0.000	0.300	100	509	-24	4	46.86	1.1	47	171.069237	
39	32702422	513262.836560	198399.013546	0.000	0.024	100	509	-24	4	46.86	1.1	47	171.232864	
40	32702922	513275.710369	198399.400607	0.000	0.454	100	507	-23	4	46.86	1.1	47	172.044022	
41	32703423	513275.432895	198399.504103	0.000	0.303	100	507	-24	4	46.86	1.1	47	172.127042	
42	32703923	513275.025931	198399.666746	0.000	0.117	100	507	-24	4	46.86	1.1	47	172.262565	
43	32704423	513274.766956	198399.755452	0.000	0.108	100	508	-23	4	46.86	1.1	47	172.334456	
44	32704924	513274.452480	198399.903320	0.000	0.050	100	508	-23	4	46.86	1.1	47	172.462166	
45	32705424	513274.045521	198400.036376	0.000	0.008	100	508	-23	4	46.86	1.1	47	172.570142	
46	32705925	513279.835630	198397.093733	0.000	0.398	100	491	-24	4	46.86	1.1	47	170.050162	
47	32706425	513282.517915	198395.910829	0.000	0.297	100	466	-23	4	46.86	1.1	47	169.047815	
48	32706925	513286.513599	198394.121678	0.000	0.388	98	463	-23	4	46.86	1.1	47	167.566097	
49	32707425	513287.179532	198393.899915	0.000	0.325	100	463	-23	4	46.86	1.1	47	167.402965	
50	32707925	513287.623490	198393.737280	0.000	0.240	100	463	-23	4	46.86	1.1	47	167.281246	
51	32708425	513287.401507	198393.840786	0.000	0.076	100	463	-23	4	46.86	1.1	47	167.364047	
52	32708925	513288.825908	198393.131010	0.000	0.099	100	463	-23	4	46.86	1.1	47	166.792894	
53	32709425	513289.047892	198393.027504	0.000	0.064	100	463	-23	4	46.86	1.1	47	166.712148	
54	32709925	513288.899902	198393.101439	0.000	0.027	100	463	-23	4	46.86	1.1	47	166.770849	
55	32710425	513288.659405	198393.293698	0.000	0.142	100	463	-23	4	46.86	1.1	47	166.938308	
56	32710925	513288.455856	198393.722646	0.000	0.155	100	463	-23	4	46.86	1.1	47	167.345323	
57	32711425	513288.585332	198393.737464	0.000	0.286	100	463	-23	4	46.86	1.1	47	167.372672	
58	32711925	513289.011093	198392.006802	0.000	0.076	100	463	-23	4	46.86	1.1	47	165.692953	
59	32712425	513289.288725	198391.074917	0.000	0.093	100	463	-23	4	46.86	1.1	47	164.794392	
60	32712926	513289.492308	198390.468456	0.000	0.072	100	461	-90	4	46.86	1.1	47	164.211996	
61	32713426	513289.307321	198390.557177	0.000	0.156	100	461	-90	4	46.86	1.1	47	164.281360	
62	32713927	513289.177831	198390.616323	0.000	0.252	100	463	-90	4	46.86	1.1	47	164.326794	
63	32714427	513289.048336	198390.705054	0.000	0.182	100	463	-90	4	46.85	1.1	47	164.401756	
64	32714927	513288.881843	198390.808571	0.000	0.248	100	463	-90	4	46.85	1.1	47	164.487793	
65	32715427	513288.733859	198390.852921	0.000	0.257	100	463	-90	4	46.85	1.1	47	164.517005	
66	32715927	513288.493379	198390.956423	0.000	0.258	100	463	-90	4	46.85	1.1	47	164.596053	
67	32716427	513288.326898	198391.000770	0.000	0.312	100	463	-90	4	46.85	1.1	47	164.623822	
68	32716927	513288.123414	198391.089487	0.000	0.296	100	463	-47	4	46.85	1.1	47	164.692354	
69	32717427	513287.882934	198391.192989	0.000	0.302	100	463	17	4	46.85	1.1	47	164.772357	
70	32717927	513287.716450	198391.252128	0.000	0.326	100	463	17	4	46.85	1.1	47	164.815504	
71	32718428	513287.420482	198391.340828	0.000	0.391	100	463	17	4	46.85	1.1	47	164.876282	
72	32718928	513287.198504	198391.414749	0.000	0.384	100	463	17	4	46.85	1.1	47	164.929596	
73	32719429	513287.013523	198391.473884	0.000	0.356	100	463	17	4	46.85	1.1	47	164.971809	
74	32719930	513286.717552	198391.577376	0.000	0.384	100	463	17	4	46.85	1.1	47	165.048645	
75	32720430	513286.477080	198391.636501	0.000	0.447	100	463	17	4	46.85	1.1	47	165.086617	
76	32720931	513286.273602	198391.695632	0.000	0.359	100	463	17	4	46.86	1.1	47	165.128100	
77	32721431	513286.014628	198391.784339	0.000	0.354	100	465	17	4	46.86	1.1	47	165.194307	
78	32721931	513285.811150	198391.843471	0.000	0.366	100	465	17	4	46.86	1.1	47	165.235895	
79	32722432	513285.496685	198391.932167	0.000	0.412	100	465	17	4	46.86	1.1	47	165.298001	
80	32722932	513285.237705	198392.050459	0.000	0.425	100	465	17	4	46.86	1.1	47	165.394713	
81	32723432	513284.941742	198392.109573	0.000	0.480	100	465	17	4	46.85	1.1	47	165.429935	
82	32723932	513284.645777	198392.183480	0.000	0.495	100	465	17	4	46.86	1.1	47	165.480449	
83	32724432	513284.460790	198392.272200	0.000	0.489	100	465	17	4	46.86	1.1	47	165.554702	
84	32724932	513284.183325	198392.331318	0.000	0.501	100	465	17	4	46.86	1.1	47	165.592738	
85	32725432	513283.887359	198392.405225	0.000	0.444	100	465	21	4	46.86	1.1	47	165.644656	
86	32725933	513283.665390	198392.434768	0.000	0.433	100	465	24	4	46.85	1.1	47	165.658131	
87	32726433	513283.332430	198392.508667	0.000	0.448	100	466	24	4	46.85	1.1	47	165.708269	
88	32726933	513282.906992	198392.552964	0.000	0.586	100	466	24	4	46.85	1.1	47	165.723012	
89	32727433	513282.648029	198392.582500	0.000	0.521	100	466	24	4	46.85	1.1	47	165.735093	
90	32727933	513282.185602	198392.597204	0.000	0.598	100	466	23	4	46.85	1.1	47	165.719723	
91	32728433	513281.908145	198392.611944	0.000	0.564	100	466	21	4	46.84	1.1	47	165.717026	
92	32728933	513281.723161	198392.685872	0.000	0.411	100	466	19	4	46.84	1.1	47	165.779469	
93	32729434	513281.242235	198392.715365	0.000	0.428	100	466	16	4	46.84	1.1	47	165.780384	
94	32729934	513280.872290	198392.744880	0.000	0.591	100	479	12	4	46.84	1.1	47	165.783365	
95	32730435	513280.557833	198392.789198	0.000	0.392	100	479	9	4	46.84	1.1	47	165.805652	
96	32730935	513280.335864	198392.818741	0.000	0.243	100	480	6	4	46.85	1.1	47	165.819757	
97	32731435	513280.150889	198392.848291	0.000	0.193	100	480	3	4	46.86	1.1	47	165.836652	
98	32731935	513279.706950	198392.907377	0.000	0.263	100	480	-1	4	46.85	1.1	47	165.866246	
99	32732436	513279.189033	198392.922071	0.000	0.517	100	491	-1	4	46.85	1.1	47	165.841664	
100	32732937	513278.634124	198392.921965	0.000	0.482	100	491	1	4	46.85	1.1	47	165.801262	
101	32733437	513278.153200	198392.936665	0.000	0.536	100	501	-1	4	46.84	1.1	47	165.779715	
102	32733937	513277.968228	198392.951423	0.000	0.463	100	501	-5	4	46.84	1.1	47	165.779297	
103	32734438	513277.413316	198392.966109	0.000	0.409	100	502	-8	4	46.83	1.1	47	165.751192	
104	32734938	513276.784420	198392.965989	0.000	0.615	100	505	-11	4	46.83	1.1	47	165.703440	
105	32735439	513276.469972	198392.965929	0.000	0.648	100	507	-10	4	46.83	1.1	47	165.679563	
106	32735939	513276.081533	198392.980647	0.000	0.408	100	507	-9	4	46.83	1.1	47	165.665232	
107	32736439	513275.693096	198392.980573	0.000	0.630	100	507	-8	4	46.83	1.1	47	165.637057	
108	32736940	513274.879239	198392.936040	0.000	0.791	100	507	-4	4	46.83	1.1	47	165.536682	
109	32737441	513273.972896	198392.891488	180.760	1.063	100	508	-5	4	46.83	1.1	47	165.483454	
110	32737941	513273.436490	198392.861800	184.470	1.211	100	508	-6	4	46.83	1.1	47	165.372078	
111	32738441	513272.641130	198392.817270	182.570	1.390	100	508	-4	4	46.83	1.1	47	165.282795	
112	32738941	513272.419172	198392.787642	178.620	1.128	100	508	-2	4	46.83	1.1	47	165.272881	
113	32739441	513272.234208	198392.758022	0.000	0.668	100	508	-1	4	46.83	1.1	47	165.205045	
114	32739941	513276.137456	198390.717376	0.000	0.254	100	507	5	4	46.83	1.1	47	163.412345	
115	32740441	513277.691342	198389.978038	0.000	0.037	100	501	5	4	46.83	1.1	47	162.793369	
116	32740941	513280.133097	198389.164908	0.000	0.129	100	480	5	4	46.83	1.1	47	162.322223	
117	32741441	513279.911133	198389.164865	0.000	0.211	100	480	5	4	46.84	1.1	47	162.163970	
118	32741941	513279.707667	198389.164826	0.000	0.132	100	480	5	4	46.84	1.1	47	162.131789	
119	32742443	513279.467201	198389.194366	0.000	0.105	100	480	5	4	46.84	1.1	47	162.152754	
120	32742943	513279.282225	198389.223916	0.000	0.048	100	491	5	4	46.84	1.1	47	162.161066	
121	32743443	513278.949269	198389.283023	0.000	0.074	100	491	5	4	46.84	1.1	47	162.184264	
122	32743943	513278.727300	198389.312565	0.000	0.154	100	491	5	4	46.84	1.1	47	162.195910	
123	32744443	513278.449837	198389.356890	0.000	0.185	100	491	5	4	46.84	1.1	47	162.232112	
124	32744943	513278.098383	198389.415994	0.000	0.200	100	491	5	4	46.84	1.1	47	162.259349	
125	32745443	513277.876414	198389.445537	0.000	0.251	100	501	5	4	46.84	1.1	47	162.266759	
126	32745943	513277.580454	198389.489858	0.000	0.297	100	501	5	4	46.83	1.1	47	162.298044	
127	32746443	513277.229001	198389.548962	0.000	0.344	100	502	5	4	46.83	1.1	47	162.310809	
128	32746943	513277.025528	198389.578508	0.000	0.357	100	502	5	4	46.84	1.1	47	162.343968	
129	32747444	513276.692575	198389.622822	0.000	0.362	100	504	5	4	46.84	1.1	47	162.352486	
130	32747944	513276.489102	198389.652369	0.000	0.378	100	505	5	4	46.84	1.1	47	162.381182	
131	32748444	513276.211640	198389.696694	0.000	0.347	100	507	5	4	46.83	1.1	47	162.400151	
132	32748944	513275.767696	198389.785365	0.000	0.304	100	507	5	4	46.84	1.1	47	162.454439	
133	32749444	513275.471736	198389.829686	0.000	0.286	100	507	5	4	46.84	1.1	47	162.486366	
134	32749944	513279.004714	198389.519716	0.000	0.071	100	491	5	4	46.84	1.1	47	162.447906	
135	32750444	513279.948082	198389.401555	0.000	0.056	100	480	5	4	46.84	1.1	47	162.362144	
136	32750944	513279.744607	198389.445895	0.000	0.037	100	480	5	4	46.83	1.1	47	162.414689	
137	32751444	513279.448644	198389.505009	0.000	0.041	100	480	5	4	46.84	1.1	47	162.443136	
138	32751944	513279.226666	198389.578930	0.000	0.047	100	491	5	4	46.84	1.1	47	162.485547	
139	32752444	513278.986195	198389.638054	0.000	0.077	100	491	5	4	46.84	1.1	47	162.551659	
140	32752944	513278.690235	198389.682376	0.000	0.043	100	491	5	4	46.84	1.1	47	162.582199	
141	32753445	513278.486754	198389.756300	0.000	0.180	100	491	5	4	46.83	1.1	47	162.623700	
142	32753945	513278.246274	198389.859803	0.000	0.109	100	491	5	4	46.83	1.1	47	162.719387	
143	32754446	513277.968805	198389.933713	0.000	0.080	100	500	5	4	46.83	1.1	47	162.748951	
144	32754946	513277.802324	198389.978059	0.000	0.122	100	501	5	4	46.83	1.1	47	162.802083	
145	32755446	513277.543353	198390.051973	0.000	0.095	100	501	5	4	46.83	1.1	47	162.843723	
146	32755946	513277.358375	198390.096316	0.000	0.095	100	502	5	4	46.83	1.1	47	162.889898	
147	32756446	513277.136397	198390.170237	0.000	0.062	100	502	5	4	46.83	1.1	47	162.942373	
148	32756946	513276.877422	198390.258944	0.000	0.052	100	503	5	4	46.83	1.1	47	163.002079	
149	32757446	513276.710936	198390.332875	0.000	0.059	100	504	5	4	46.83	1.1	47	163.047037	
150	32757947	513276.507458	198390.392007	0.000	0.068	100	506	5	4	46.83	1.1	47	163.116065	
151	32758448	513276.266980	198390.480717	0.000	0.026	100	507	5	4	46.83	1.1	47	163.164553	
152	32758948	513276.118993	198390.539860	0.000	0.038	100	507	5	4	46.84	1.1	47	163.233945	
153	32759448	513275.841522	198390.628563	0.000	0.068	100	507	5	4	46.83	1.1	47	163.289844	
154	32759948	513275.656538	198390.702491	0.000	0.137	100	507	-5	4	46.83	1.1	47	163.335363	
155	32760448	513275.397572	198390.746819	0.000	0.060	100	507	-4	4	46.83	1.1	47	163.387990	
156	32760948	513275.083104	198390.850308	0.000	0.094	100	507	-4	4	46.83	1.1	47	163.459748	
157	32761448	513274.861127	198390.924229	0.000	0.116	100	507	-4	4	46.83	1.1	47	163.501111	
158	32761948	513274.583655	198391.012932	0.000	0.075	100	507	-2	4	46.83	1.1	47	163.598294	
159	32762448	513274.269193	198391.086835	0.000	0.110	100	507	-4	4	46.83	1.1	47	163.615812	
160	32762949	513273.991724	198391.160746	0.000	0.120	100	508	-3	4	46.83	1.1	47	163.707885	
161	32763449	513273.640260	198391.279020	0.000	0.072	100	508	-2	4	46.83	1.1	47	163.778119	
162	32763949	513273.399785	198391.352938	0.000	0.111	100	508	-2	4	46.83	1.1	47	163.837437	
163	32764449	513273.103814	198391.456430	0.000	0.102	100	508	-1	4	46.83	1.1	47	163.949781	
164	32764950	513272.752349	198391.574704	0.000	0.066	100	508	-2	4	46.83	1.1	47	163.995229	
165	32765451	513272.493380	198391.633826	0.000	0.078	100	508	-1	4	46.83	1.1	47	164.068569	
166	32765952	513272.197412	198391.722525	0.000	0.109	100	508	-1	4	46.83	1.1	47	164.166150	
167	32766453	513271.827453	198391.826003	0.000	0.120	100	508	-1	4	46.83	1.1	47	164.250817	
168	32766953	513271.605478	198391.885132	0.000	0.057	100	508	-1	4	46.83	1.1	47	164.299072	
169	32767453	513271.254016	198391.988613	0.000	0.085	100	508	-1	4	46.83	1.1	47	164.385956	
170	32767953	513274.787317	198389.992275	0.000	0.119	99	507	0	4	46.83	1.1	47	162.593940	
171	32768453	513278.098533	198388.631981	0.000	0.172	100	500	0	4	46.82	1.1	47	161.483773	
172	32768953	513278.986509	198387.996066	0.000	0.243	100	491	0	4	46.82	1.1	47	160.914308	
173	32769453	513279.171527	198387.744625	0.000	0.088	100	491	1	4	46.82	1.1	47	160.677642	
174	32769953	513278.228225	198387.522554	0.000	0.049	100	491	1	4	46.82	1.1	47	160.386661	
175	32770453	513277.136944	198387.315247	0.000	0.122	101	502	1	4	46.82	1.1	47	160.095823	
176	32770953	513274.972774	198387.447966	0.000	0.243	100	507	1	4	46.82	1.1	47	160.067541	
177	32771453	513272.716200	198387.166472	0.000	0.178	100	508	2	4	46.83	1.1	47	159.644734	
178	32771954	513270.996019	198386.973837	0.000	0.249	100	508	2	4	46.83	1.1	47	159.364627	
179	32772455	513269.331333	198386.766419	0.000	0.090	100	509	2	4	46.83	1.1	47	159.089669	
180	32772955	513266.408870	198386.470004	0.000	0.253	100	509	3	4	46.83	1.1	47	158.713770	
181	32773455	513264.744175	198386.306965	0.000	0.248	100	509	3	4	46.83	1.1	47	158.529392	
182	32773956	513261.932678	198386.099327	0.000	0.362	100	509	3	4	46.84	1.1	47	158.325370	
183	32774457	513259.065686	198385.906472	0.000	0.493	100	509	4	4	46.83	1.1	47	158.187676	
184	32774957	513257.179022	198385.772975	0.000	0.570	100	511	5	4	46.83	1.1	47	158.118444	
185	32775457	513254.977907	198385.654210	0.000	0.599	100	515	5	4	46.83	1.1	47	158.088151	
186	32775957	513253.220693	198385.668666	0.000	0.670	100	516	6	4	46.83	1.1	47	158.190598	
187	32776457	513252.240363	198385.624099	0.000	0.448	100	520	5	4	46.82	1.1	47	158.200136	
188	32776957	513251.019590	198385.490730	0.000	0.413	100	520	6	4	46.82	1.1	47	158.140494	
189	32777458	513250.224232	198385.431406	0.000	0.434	100	520	6	4	46.82	1.1	47	158.134259	
190	32777959	513248.947973	198385.268441	0.000	0.408	100	523	6	4	46.82	1.1	47	158.062866	
191	32778460	513247.560732	198385.105454	0.000	0.343	100	523	7	4	46.83	1.1	47	158.007853	
192	32778961	513246.635896	198385.046106	0.000	0.410	100	523	8	4	46.83	1.1	47	158.027148	
193	32779461	513245.415108	198384.986700	0.000	0.431	100	524	8	4	46.83	1.1	47	158.078388	
194	32779962	513244.619742	198384.971755	0.000	0.439	100	526	8	4	46.83	1.1	47	158.139339	
195	32780463	513243.768885	198384.956799	0.000	0.465	100	527	8	4	46.83	1.1	47	158.208198	
196	32780964	513242.770055	198384.927021	0.000	0.351	100	527	8	4	46.83	1.1	47	158.281806	
197	32781465	513242.196652	198384.912118	0.000	0.247	100	527	8	4	46.82	1.1	47	158.329074	
198	32781966	513241.567753	198384.926790	0.000	0.322	100	527	7	4	46.83	1.1	47	158.414105	
199	32782466	513240.883357	198384.971037	0.000	0.279	100	527	7	4	46.83	1.1	47	158.537506	
200	32782966	513240.476412	198385.030130	0.000	0.196	100	527	6	4	46.83	1.1	47	158.644784	
201	32783468	513239.958480	198385.118787	0.000	0.021	100	527	5	4	46.81	1.1	47	158.796101	
202	32783968	513239.625518	198385.207480	0.000	0.181	100	528	5	4	46.81	1.1	47	158.925255	
203	32784468	513239.255559	198385.310958	0.000	0.140	100	528	4	4	46.81	1.1	47	159.074375	
204	32784969	513238.867097	198385.444018	0.000	0.118	100	529	4	4	46.81	1.1	47	159.255502	
205	32785470	513238.626620	198385.532729	0.000	0.130	100	529	3	4	46.81	1.1	47	159.374340	
206	32785970	513238.071669	198385.754513	0.000	0.176	100	530	3	4	46.82	1.1	47	159.666511	
207	32786470	513237.442718	198386.035455	0.000	0.391	100	530	3	4	46.82	1.1	47	160.028459	
208	32786970	513237.128236	198386.212908	0.000	0.188	100	530	3	4	46.82	1.1	47	160.246875	
209	32787470	513236.758260	198386.405143	0.000	0.069	100	530	2	4	46.82	1.1	47	160.488119	
210	32787970	513236.591764	198386.523453	0.000	0.092	100	530	2	4	46.82	1.1	47	160.628409	
211	32788470	513236.425269	198386.641763	0.000	0.110	100	530	1	4	46.82	1.1	47	160.768836	
212	32788975	513236.240268	198386.804448	0.000	0.094	100	530	1	4	46.82	1.1	47	160.955943	
213	32789475	513236.147758	198386.937565	0.000	0.073	100	530	1	4	46.82	1.1	47	161.100810	
214	32789975	513236.073745	198387.070686	0.000	0.136	100	530	1	4	46.82	1.1	47	161.243085	
215	32790475	513235.962735	198387.218593	0.000	0.341	100	530	1	4	46.82	1.1	47	161.405284	
216	32790975	513235.962718	198387.307349	0.000	0.092	100	530	0	4	46.82	1.1	47	161.493136	
217	32791475	513235.925698	198387.440477	0.000	0.160	100	530	1	4	46.82	1.1	47	161.630182	
218	32791976	513235.851690	198387.544012	0.000	0.216	100	530	1	4	46.82	1.1	47	161.743224	
219	32792477	513235.796188	198387.603173	0.000	0.138	100	530	1	4	46.82	1.1	47	161.809719	
