Index Time TM_X(lat) TM_Y(long) T_Heading GPS_Spd WP_Target WP_Index Steering_CMD Speed_CMD BATT_Volt Discharge SoC Trackig_Error
1	27734592	513264.042347	198198.942261	0.000	0.181	100	184	5	4	48.17	2.6	62	18.726793	
2	27735092	513264.060843	198198.942265	0.000	0.314	100	184	5	4	48.17	2.6	62	18.708783	
3	27735594	513264.042343	198198.957054	0.000	0.023	100	184	5	4	48.17	2.6	62	18.723432	
4	27736094	513264.042347	198198.942261	0.000	0.031	100	184	5	4	48.20	2.6	62	18.726793	
5	27736594	513264.042343	198198.957054	0.000	0.026	100	184	5	4	48.20	2.6	62	18.723432	
6	27737095	513264.042347	198198.942261	0.000	0.102	100	184	5	4	48.21	3.6	62	18.726793	
7	27737602	513264.042347	198198.942261	0.000	0.054	100	184	5	4	48.21	3.9	62	18.726793	
8	27738104	513264.042347	198198.942261	0.000	0.016	100	184	5	4	48.21	4.3	62	18.726793	
9	27738604	513264.042347	198198.942261	0.000	0.046	100	184	5	4	48.20	4.3	62	18.726793	
10	27739104	513264.060843	198198.942265	0.000	0.038	100	184	5	4	48.19	4.3	62	18.708783	
11	27739604	513264.060843	198198.942265	0.000	0.044	100	184	5	4	48.18	6.1	62	18.708783	
12	27740104	513264.060843	198198.942265	0.000	0.065	100	184	5	4	48.18	6.4	62	18.708783	
13	27740604	513264.042347	198198.942261	0.000	0.096	100	184	5	4	48.18	6.9	62	18.726793	
14	27741104	513264.042347	198198.942261	0.000	0.056	100	184	5	4	48.14	6.9	62	18.726793	
15	27741604	513264.042343	198198.957054	0.000	0.039	100	184	5	4	48.13	6.9	62	18.723432	
16	27742104	513264.042343	198198.957054	0.000	0.033	100	184	5	4	48.13	8.8	62	18.723432	
17	27742604	513264.042343	198198.957054	0.000	0.098	100	184	5	4	48.13	9.9	62	18.723432	
18	27743105	513264.042343	198198.957054	0.000	0.059	100	184	5	4	48.13	10.8	62	18.723432	
19	27743606	513264.042343	198198.957054	0.000	0.012	100	184	5	4	48.10	10.8	62	18.723432	
20	27744107	513264.042343	198198.957054	0.000	0.054	100	184	5	4	48.08	10.8	62	18.723432	
21	27744607	513264.060840	198198.957058	0.000	0.074	100	184	5	4	48.07	13.9	62	18.705418	
22	27745107	513264.060840	198198.957058	0.000	0.069	100	184	5	4	48.07	13.7	62	18.705418	
23	27745607	513264.060840	198198.957058	0.000	0.102	100	184	5	4	48.07	15.0	62	18.705418	
24	27746108	513264.060840	198198.957058	0.000	0.061	100	184	5	4	47.98	15.0	62	18.705418	
25	27746608	513264.060840	198198.957058	0.000	0.067	100	184	5	4	47.95	15.0	62	18.705418	
26	27747108	513264.060840	198198.957058	0.000	0.033	100	184	5	4	47.94	20.3	62	18.705418	
27	27747608	513264.060840	198198.957058	0.000	0.132	100	184	5	4	47.94	23.2	62	18.705418	
28	27748108	513264.060840	198198.957058	0.000	0.029	100	184	5	4	47.94	24.4	62	18.705418	
29	27748609	513264.079337	198198.957062	0.000	0.086	100	184	5	4	47.83	24.4	62	18.687404	
30	27749109	513264.079337	198198.957062	0.000	0.139	100	184	5	4	47.79	24.4	62	18.687404	
31	27749610	513264.097831	198198.971858	0.000	0.300	100	184	5	4	47.77	30.1	62	18.666032	
32	27750110	513264.171816	198198.986667	19.640	0.547	100	184	-3	4	47.77	28.8	62	18.590617	
33	27750611	513264.245797	198199.016268	16.380	0.930	100	185	-3	4	47.77	28.9	62	18.673378	
34	27751112	513264.375266	198199.060674	19.340	1.110	100	186	-4	4	47.67	28.9	62	18.692109	
35	27751613	513264.578717	198199.134681	17.720	1.356	100	187	-4	4	47.66	28.9	62	18.625685	
36	27752113	513264.782171	198199.193896	12.250	1.667	100	188	-3	4	47.66	27.4	62	18.580640	
37	27752613	513264.948631	198199.253102	19.160	1.866	100	189	-3	4	47.66	25.9	62	18.557228	
38	27753113	513265.244563	198199.341922	16.770	1.963	100	190	-3	4	47.66	25.8	62	18.409119	
39	27753613	513265.485011	198199.401144	12.030	2.205	100	192	-3	4	47.64	25.8	62	18.468730	
40	27754113	513265.854931	198199.489980	10.440	2.498	100	194	-2	4	47.66	25.8	62	18.391548	
41	27754613	513266.206357	198199.564018	9.640	2.544	100	196	-2	4	47.66	23.5	62	18.332681	
42	27755114	513266.502296	198199.623253	11.280	2.624	100	197	-2	4	47.66	21.6	62	18.172511	
43	27755614	513266.890720	198199.682507	9.210	2.937	100	199	-2	4	47.66	22.0	62	18.056808	
44	27756114	513267.371621	198199.771366	7.680	3.126	101	202	-2	4	47.70	22.0	62	17.835857	
45	27756614	513267.815536	198199.830632	6.740	3.217	100	204	-1	4	47.71	22.0	62	17.762068	
46	27757114	513268.185462	198199.889882	8.270	3.239	100	206	-1	4	47.71	19.0	62	17.648568	
47	27757614	513268.647874	198199.949152	6.920	3.496	100	208	-1	4	47.71	17.4	62	17.436742	
48	27758114	513269.239763	198200.008449	5.270	3.750	101	212	0	4	47.71	17.3	62	17.196018	
49	27758614	513269.646687	198200.052915	4.510	3.615	100	214	0	4	47.78	17.3	62	17.161397	
50	27759114	513270.164592	198200.097404	6.160	3.737	100	216	0	4	47.80	17.3	62	16.906793	
51	27759614	513270.682498	198200.141893	5.440	3.932	100	219	0	4	47.80	14.9	62	16.745656	
52	27760114	513271.218900	198200.186386	2.970	3.869	100	222	1	4	47.80	13.8	62	16.604133	
53	27760614	513271.773799	198200.230882	4.660	3.974	100	225	1	4	47.80	14.2	62	16.479356	
54	27761114	513272.347192	198200.290176	5.290	4.069	100	228	1	4	47.84	14.2	62	16.378313	
55	27761614	513272.902091	198200.334673	4.270	4.272	100	230	2	4	47.85	14.2	62	16.201909	
56	27762114	513273.493981	198200.393970	3.720	4.104	100	233	2	4	47.86	11.0	62	16.125235	
57	27762615	513274.067378	198200.438471	5.240	4.234	100	236	2	4	47.86	12.2	62	16.087672	
58	27763116	513274.677761	198200.512565	6.070	4.352	100	240	2	4	47.86	10.3	62	16.189193	
59	27763616	513275.288148	198200.571867	8.270	4.430	100	243	3	4	47.92	10.3	62	16.192277	
60	27764117	513276.009504	198200.690363	8.310	4.466	100	247	3	4	47.94	10.3	62	16.293770	
61	27764617	513276.508906	198200.764433	9.420	4.504	100	249	4	4	47.94	9.8	62	16.285245	
62	27765117	513277.248753	198200.912518	9.160	4.471	100	253	4	4	47.94	8.7	62	16.465206	
63	27765618	513277.729649	198201.030963	15.430	4.369	100	256	5	4	47.94	7.9	62	16.666674	
64	27766118	513278.432492	198201.223418	14.990	4.606	101	260	6	4	47.98	7.9	62	16.687925	
65	27766618	513278.987359	198201.415842	21.350	4.204	100	263	5	4	47.98	7.9	62	17.011473	
66	27767118	513279.431248	198201.593449	22.230	4.244	100	266	5	4	47.98	9.5	62	17.247048	
67	27767618	513279.967610	198201.830247	26.730	4.162	100	269	6	4	47.98	8.7	62	17.397441	
68	27768118	513280.596437	198202.155821	28.560	4.133	100	272	6	4	47.98	8.4	62	17.480584	
69	27768618	513280.984822	198202.392587	29.890	4.246	100	275	7	4	47.99	8.4	62	17.708966	
70	27769118	513281.576642	198202.777323	35.660	4.191	100	279	7	4	47.99	8.4	62	17.944808	
71	27769618	513282.020494	198203.132442	40.300	4.141	100	282	8	4	47.99	9.1	62	18.073072	
72	27770119	513282.371869	198203.443164	43.490	4.271	100	284	8	4	47.99	9.0	62	18.084522	
73	27770619	513282.797211	198203.857450	47.370	4.201	100	288	8	4	47.99	8.7	62	18.307790	
74	27771119	513283.241027	198204.375289	52.730	4.183	100	291	8	4	48.01	8.7	62	18.300554	
75	27771619	513283.499906	198204.745161	56.070	4.143	100	294	9	4	48.01	8.7	62	18.439868	
76	27772119	513283.869725	198205.307362	58.730	4.173	101	297	7	4	48.02	8.1	62	18.202551	
77	27772619	513284.073106	198205.706808	64.710	3.909	100	300	7	4	48.02	8.6	62	18.457332	
78	27773119	513284.350431	198206.313367	66.870	4.012	100	303	6	4	48.02	8.7	62	18.296724	
79	27773619	513284.498318	198206.727594	70.100	3.939	100	305	5	4	48.02	8.7	62	18.186035	
80	27774119	513284.683156	198207.348926	73.240	3.881	101	309	5	4	48.01	8.7	62	17.988919	
81	27774619	513284.812524	198207.866697	76.350	3.916	100	312	4	4	48.01	9.3	62	17.962573	
82	27775119	513284.886420	198208.295701	79.440	3.854	100	314	4	4	48.01	9.2	62	17.782276	
83	27775619	513284.978795	198208.813464	83.570	3.801	100	317	4	4	48.01	9.0	62	17.586141	
84	27776119	513285.052647	198209.449565	82.970	3.810	100	320	3	4	48.00	9.0	62	17.271065	
85	27776620	513285.089550	198209.878561	84.450	3.807	100	323	3	4	48.00	9.0	62	17.106777	
86	27777120	513285.144905	198210.514658	88.520	3.750	100	326	3	4	48.00	9.4	62	16.766674	
87	27777620	513285.163311	198210.943650	89.760	3.806	100	328	2	4	48.00	10.0	62	16.543133	
88	27778120	513285.181672	198211.579739	87.160	3.803	101	332	2	4	48.00	11.5	62	16.243628	
89	27778620	513285.181584	198211.993934	90.950	3.822	100	334	2	4	48.00	11.5	62	16.165830	
90	27779120	513285.181449	198212.630019	91.560	3.803	101	337	2	4	47.99	11.5	62	15.810506	
91	27779620	513285.162861	198213.059003	91.560	3.906	100	339	1	4	47.99	10.9	62	15.768606	
92	27780120	513285.162726	198213.695088	90.290	3.993	100	343	1	4	47.99	10.3	62	15.732554	
93	27780620	513285.125616	198214.242410	93.310	3.892	100	346	1	4	47.99	10.6	62	15.660565	
94	27781120	513285.125524	198214.671398	89.730	3.869	100	348	1	4	47.99	10.6	62	15.604042	
95	27781620	513285.106911	198215.218723	90.350	3.927	100	351	0	4	48.00	10.6	62	15.619254	
96	27782120	513285.088276	198215.869597	92.530	3.853	101	354	1	4	47.99	10.4	62	15.439527	
97	27782620	513285.069685	198216.313373	90.050	3.971	100	356	1	4	47.99	11.3	62	15.521483	
98	27783120	513285.051050	198216.964247	91.330	3.951	100	360	2	4	47.99	10.6	62	15.722409	
99	27783620	513285.032459	198217.408024	92.130	3.960	100	362	2	4	47.99	10.6	62	15.759486	
100	27784120	513284.995324	198218.073687	92.940	4.027	101	366	3	4	48.00	10.6	62	15.840239	
101	27784620	513284.976730	198218.532256	91.440	4.056	100	368	3	4	48.00	9.9	62	16.070260	
102	27785120	513284.939595	198219.197919	95.030	3.911	100	371	4	4	48.00	9.6	62	16.210896	
103	27785620	513284.921007	198219.626902	98.150	3.934	100	374	5	4	48.00	9.5	62	16.495524	
104	27786121	513284.846881	198220.277765	97.450	3.858	100	377	6	4	47.99	9.5	62	16.677143	
105	27786621	513284.754284	198220.810282	101.310	3.771	100	380	6	4	48.00	9.5	62	16.923173	
106	27787122	513284.680208	198221.224461	101.850	3.654	100	382	7	4	48.00	9.7	62	17.068203	
107	27787622	513284.550623	198221.727385	105.340	3.808	100	385	8	4	48.00	10.5	62	17.331293	
108	27788122	513284.384029	198222.304264	107.240	3.640	100	388	9	4	48.00	9.9	62	17.546684	
109	27788622	513284.235972	198222.688843	111.150	3.450	100	390	9	4	47.99	9.9	62	17.661145	
110	27789122	513283.958402	198223.236113	116.980	3.828	100	394	10	4	47.99	9.9	62	17.980855	
111	27789623	513283.754860	198223.591095	121.600	3.702	100	396	10	4	47.99	10.4	62	18.074778	
112	27790123	513283.403312	198224.093972	128.500	3.584	100	400	10	4	47.99	10.0	62	18.383438	
113	27790623	513283.144292	198224.389771	128.600	3.674	100	402	10	4	47.99	10.0	62	18.444694	
114	27791123	513282.737271	198224.803880	139.090	3.517	100	405	10	4	47.99	10.0	62	18.515212	
115	27791624	513282.348770	198225.114444	139.820	3.377	100	408	10	4	47.99	10.0	62	18.634611	
116	27792124	513282.034278	198225.321476	146.410	3.428	100	410	8	4	47.98	11.7	62	18.655562	
117	27792624	513281.645788	198225.572869	152.720	3.464	100	413	7	4	47.98	12.7	62	18.880183	
118	27793124	513281.127817	198225.839028	157.300	3.321	100	416	7	4	47.98	12.9	62	18.988250	
119	27793624	513280.609859	198226.046017	155.710	3.306	100	418	6	4	47.96	12.9	62	19.044669	
120	27794124	513280.258389	198226.179077	163.310	3.364	101	421	5	4	47.95	12.9	62	18.948413	
121	27794624	513279.906924	198226.282551	163.470	3.406	100	422	4	4	47.94	14.6	62	19.018055	
122	27795125	513279.370485	198226.415572	165.950	3.343	100	425	4	4	47.94	14.1	62	19.128317	
123	27795625	513279.019024	198226.504254	168.070	3.248	100	427	3	4	47.94	14.5	62	19.209244	
124	27796126	513278.482593	198226.592897	166.210	3.274	101	430	2	4	47.91	14.5	62	19.096718	
125	27796626	513278.112642	198226.651990	170.190	3.346	100	432	2	4	47.90	14.5	62	19.369450	
126	27797127	513277.557714	198226.740629	175.470	3.279	100	435	2	4	47.89	15.3	62	19.447888	
127	27797627	513277.206259	198226.799726	172.810	3.405	100	437	1	4	47.89	17.0	62	19.509939	
128	27798127	513276.651338	198226.858780	171.450	3.409	101	440	1	4	47.89	17.1	62	19.223513	
129	27798627	513276.281390	198226.903080	173.490	3.439	100	442	1	4	47.86	17.1	62	19.465318	
130	27799127	513275.689471	198226.976918	174.340	3.488	100	445	1	4	47.85	17.1	62	19.501040	
131	27799628	513275.301026	198227.021215	172.450	3.610	100	447	1	4	47.85	15.5	62	19.520169	
132	27800128	513274.709111	198227.080261	173.680	3.744	100	450	1	4	47.85	15.0	62	19.544865	
133	27800629	513274.283671	198227.124549	173.460	3.890	100	452	1	4	47.85	16.2	62	19.528189	
134	27801129	513273.654762	198227.183587	173.520	3.915	100	456	1	4	47.85	16.2	62	19.694980	
135	27801629	513273.210829	198227.213079	174.740	4.151	100	458	1	4	47.85	16.2	62	19.655223	
136	27802130	513272.563423	198227.272113	174.830	3.937	100	461	1	4	47.85	13.4	62	19.619825	
137	27802630	513271.897523	198227.316351	176.260	4.045	100	465	1	4	47.85	12.7	62	19.782619	
138	27803130	513271.435093	198227.345839	175.770	4.048	100	467	1	4	47.85	12.1	62	19.728484	
139	27803630	513270.732196	198227.404861	176.280	4.122	100	470	1	4	47.88	12.1	62	19.903544	
140	27804130	513270.140287	198227.434322	177.910	4.267	100	473	0	4	47.89	12.1	62	19.943317	
141	27804630	513269.659357	198227.478599	178.310	4.465	100	476	0	4	47.90	11.9	62	19.847530	
142	27805130	513269.159936	198227.493286	176.750	4.505	100	479	0	4	47.90	10.5	62	19.965597	
143	27805631	513268.438546	198227.537512	174.870	4.520	100	483	0	4	47.90	10.2	62	20.096094	
144	27806131	513267.809640	198227.581758	176.360	4.330	100	486	1	4	47.95	10.2	62	20.116507	
145	27806631	513267.328713	198227.611242	175.720	4.408	100	489	1	4	47.96	10.2	62	20.275386	
146	27807131	513266.588825	198227.655464	174.820	4.399	100	493	1	4	47.97	8.9	62	20.064326	
147	27807631	513265.978419	198227.684921	175.590	4.300	100	495	2	4	47.97	9.4	62	20.047554	
148	27808131	513265.386510	198227.714381	177.850	4.368	100	499	2	4	47.97	8.9	62	20.221549	
149	27808631	513264.665123	198227.743815	176.610	4.223	100	502	2	4	47.98	8.9	62	20.413503	
150	27809131	513264.202699	198227.743717	177.150	4.169	100	505	1	4	47.98	8.9	62	20.375168	
151	27809631	513263.629293	198227.743596	180.340	4.126	100	509	2	4	47.98	9.6	62	20.630510	
152	27810131	513263.166869	198227.743499	180.110	4.246	100	511	2	4	47.98	11.0	62	20.589502	
153	27810632	513262.463985	198227.743351	182.540	4.232	100	514	3	4	47.98	9.5	62	20.496237	
154	27811132	513261.761107	198227.713617	183.350	4.245	100	516	3	4	47.98	9.5	62	20.431313	
155	27811632	513261.187710	198227.669118	182.840	4.316	100	520	3	4	47.98	9.5	62	20.366110	
156	27812132	513260.706799	198227.624639	184.950	4.223	100	522	4	4	47.98	9.3	62	20.213498	
157	27812633	513260.003930	198227.550527	186.390	4.270	100	524	4	4	47.98	9.0	62	20.067975	
158	27813134	513259.523025	198227.476462	187.440	4.412	100	527	5	4	47.98	8.3	62	19.839938	
159	27813634	513258.931147	198227.357995	191.130	4.256	100	530	4	4	47.99	8.3	62	19.728502	
160	27814134	513258.228297	198227.195127	191.560	4.284	100	532	4	4	47.99	8.3	62	19.599973	
161	27814634	513257.747404	198227.061891	196.770	4.542	100	536	4	4	48.00	7.5	62	19.535185	
162	27815134	513257.063063	198226.839856	198.890	4.378	100	539	4	4	48.00	7.2	62	19.551386	
163	27815634	513256.489701	198226.632637	200.990	4.408	100	541	3	4	48.00	7.2	62	19.339305	
164	27816134	513256.045815	198226.440237	202.080	4.258	100	545	3	4	48.02	7.2	62	19.304754	
165	27816635	513255.435478	198226.144254	205.540	4.129	100	547	2	4	48.03	7.2	62	19.219186	
166	27817136	513255.028585	198225.951863	208.600	4.071	100	550	1	4	48.03	7.3	62	19.086398	
167	27817636	513254.510727	198225.685484	207.400	4.087	100	552	1	4	48.03	8.1	62	18.903787	
168	27818136	513254.029862	198225.419113	208.810	4.036	100	555	1	4	48.03	8.7	62	18.926268	
169	27818637	513253.438028	198225.093548	209.260	4.113	100	557	2	4	48.01	8.7	62	18.868207	
170	27819138	513253.031142	198224.871571	208.430	4.134	100	560	2	4	48.00	8.7	62	18.785338	
171	27819638	513252.457808	198224.531217	209.520	3.911	100	562	2	4	48.00	8.6	62	18.767324	
172	27820138	513252.087919	198224.294455	212.460	4.064	100	565	2	4	48.00	8.8	62	18.709857	
173	27820638	513251.514585	198223.954101	209.730	4.070	100	568	2	4	48.00	8.8	62	18.677806	
174	27821138	513251.163193	198223.717343	214.340	3.668	100	570	3	4	48.01	8.8	62	18.608462	
175	27821638	513250.756322	198223.421402	213.660	3.573	100	573	2	4	48.00	8.8	62	18.638444	
176	27822138	513250.275473	198223.081068	216.950	3.444	100	574	2	4	48.00	10.9	62	18.570252	
177	27822638	513249.979569	198222.859114	214.790	3.205	100	577	2	4	48.00	13.2	62	18.641079	
178	27823138	513249.572708	198222.518795	221.330	3.203	100	579	2	4	48.00	14.1	62	18.707815	
179	27823639	513249.221325	198222.237658	218.910	3.213	100	581	2	4	47.95	14.1	62	18.624418	
180	27824139	513248.943921	198222.000916	219.510	3.161	100	583	2	4	47.93	14.1	62	18.616855	
181	27824639	513248.537060	198221.660597	221.940	3.159	100	585	2	4	47.92	14.6	62	18.703781	
182	27825139	513248.278152	198221.423858	221.410	3.449	100	587	2	4	47.92	16.2	62	18.632086	
183	27825640	513247.852804	198221.039157	225.260	3.343	100	589	3	4	47.92	15.6	62	18.675486	
184	27826140	513247.519927	198220.713646	222.630	3.391	100	592	4	4	47.88	15.6	62	18.797027	
185	27826641	513247.261023	198220.462114	223.090	3.387	100	595	4	4	47.88	15.6	62	18.812190	
186	27827141	513247.002119	198220.210583	227.830	3.341	100	596	5	4	47.87	14.9	62	18.679760	
187	27827642	513246.576792	198219.722332	230.380	3.340	100	598	5	4	47.87	15.5	62	18.585462	
188	27828142	513246.336392	198219.441219	229.620	3.228	100	601	6	4	47.87	15.4	62	18.527714	
189	27828642	513246.040528	198219.026959	234.100	3.009	100	602	6	4	47.85	15.4	62	18.368845	
190	27829142	513245.837124	198218.731061	236.110	3.173	100	605	6	4	47.84	15.4	62	18.310305	
191	27829643	513245.559764	198218.287220	236.700	3.256	100	607	6	4	47.84	17.4	62	18.261621	
192	27830143	513245.411854	198217.976541	240.640	3.017	100	609	6	4	47.84	17.9	62	18.031395	
193	27830644	513245.189981	198217.547504	246.520	2.884	100	611	6	4	47.84	17.3	62	17.970265	
194	27831145	513245.042084	198217.177654	248.010	2.910	100	613	5	4	47.80	17.3	62	17.797620	
195	27831645	513244.931165	198216.881775	249.090	2.722	100	615	5	4	47.77	17.3	62	17.558090	
196	27832146	513244.783277	198216.467547	250.160	2.633	100	617	5	4	47.76	21.6	62	17.371372	
197	27832646	513244.709349	198216.186469	254.940	2.448	100	618	4	4	47.76	22.3	62	17.133524	
198	27833146	513244.616952	198215.772252	258.110	2.638	1	1	4	4	47.76	22.3	62	16.971711	
199	27833646	513244.543021	198215.505967	258.290	2.685	3	3	3	4	47.66	22.3	62	16.809659	
200	27834146	513244.450634	198215.047372	259.610	2.737	4	5	3	4	47.63	22.3	62	16.603813	
201	27834646	513244.395205	198214.751505	260.580	2.888	7	7	3	4	47.62	26.9	61	16.409733	
202	27835148	513244.339796	198214.366882	264.390	2.805	8	8	2	4	47.62	27.3	61	16.189143	
203	27835649	513244.265912	198213.878705	260.910	3.045	10	11	2	4	47.62	28.3	61	15.969005	
204	27836150	513244.228994	198213.523671	264.890	3.018	13	13	2	4	47.59	28.3	61	15.718031	
205	27836650	513244.192110	198213.005917	266.620	3.136	15	15	2	4	47.59	28.3	61	15.567646	
206	27837150	513244.155198	198212.621298	265.310	3.472	18	18	1	4	47.58	24.3	61	15.329703	
207	27837650	513244.136817	198212.073962	268.530	3.232	20	20	1	4	47.58	24.9	61	15.209534	
208	27838150	513244.099905	198211.689342	266.700	3.375	23	23	1	4	47.58	24.3	61	14.931553	
209	27838650	513244.081528	198211.127214	268.790	3.433	25	26	1	4	47.59	24.3	61	14.929406	
210	27839150	513244.063109	198210.757391	267.900	3.373	27	27	1	4	47.59	24.3	61	14.725273	
211	27839650	513244.044738	198210.165677	268.110	3.447	30	30	0	4	47.58	25.2	61	14.797305	
212	27840151	513244.026304	198209.869818	263.620	3.626	32	32	0	4	47.58	24.9	61	14.680022	
213	27840651	513243.989458	198209.174551	269.200	3.622	35	36	0	4	47.58	24.3	61	14.751599	
214	27841152	513243.989547	198208.760354	266.820	3.790	38	38	0	4	47.57	24.3	61	14.770922	
215	27841652	513243.952685	198208.139050	267.850	3.827	41	41	1	4	47.58	24.3	61	14.710852	
216	27842152	513243.934305	198207.591714	267.290	3.912	44	44	1	4	47.59	21.8	61	14.874580	
217	27842652	513243.915906	198207.133135	266.950	4.027	47	47	2	4	47.59	21.4	61	15.293888	
218	27843152	513243.897551	198206.467457	269.850	4.051	50	50	3	4	47.59	19.3	61	15.303339	
219	27843653	513243.879145	198206.038463	269.740	3.818	53	53	4	4	47.64	19.3	61	15.783948	
220	27844154	513243.879259	198205.505924	272.680	3.540	56	56	5	4	47.65	19.3	61	15.901812	
